Time [s],Packet ID,Address,Data,Read/Write,ACK/NAK
0.000128,0,0x78,0x16,Write,ACK
0.000233,0,0x78,0x20,Write,ACK
0.0019845,1,0x78,0x4F,Write,ACK
0.002089,1,0x78,0xC7,Write,ACK
0.003937,2,0x78,0x1D,Write,ACK
0.004042,2,0x78,0x70,Write,ACK
0.005891,3,0x78,0x3A,Write,ACK
0.005996,3,0x78,0x01,Write,ACK
0.0078455,4,0x78,0x50,Write,ACK
0.00795,4,0x78,0x4F,Write,ACK
0.258127,5,0x78,0x4F,Write,ACK
0.258326,6,0x79,0xC7,Read,NAK
0.2585815,7,0x78,0x50,Write,ACK
0.2587805,8,0x79,0x4F,Read,NAK
0.2590345,9,0x78,0x51,Write,ACK
0.259233,10,0x79,0x15,Read,NAK
0.2594855,11,0x78,0x52,Write,ACK
0.2596845,12,0x79,0x1C,Read,NAK
0.259937,13,0x78,0x46,Write,ACK
0.260136,14,0x79,0x2A,Read,NAK
0.2603875,15,0x78,0x48,Write,ACK
0.2605865,16,0x79,0x23,Read,NAK
0.2608395,17,0x78,0x49,Write,ACK
0.261038,18,0x79,0x63,Read,NAK
0.2612905,19,0x78,0x4A,Write,ACK
0.261489,20,0x79,0x07,Read,NAK
0.261741,21,0x78,0x4B,Write,ACK
0.2619395,22,0x79,0xC7,Read,NAK
0.2621915,23,0x78,0x4C,Write,ACK
0.2623905,24,0x79,0xC7,Read,NAK
0.262642,25,0x78,0x4D,Write,ACK
0.262841,26,0x79,0xC7,Read,NAK
0.2630925,27,0x78,0x4E,Write,ACK
0.2632915,28,0x79,0x5C,Read,NAK
0.263543,29,0x78,0x03,Write,ACK
0.263742,30,0x79,0xDC,Read,NAK
0.263993,31,0x78,0x03,Write,ACK
0.264192,32,0x79,0xDC,Read,NAK
0.264444,33,0x78,0x03,Write,ACK
0.2646425,34,0x79,0xDC,Read,NAK
0.2650345,35,0x78,0x2B,Write,ACK
0.265233,36,0x79,0x20,Read,NAK
0.2654865,37,0x78,0x2B,Write,ACK
0.265579,37,0x78,0x20,Write,ACK
0.2663395,38,0x78,0x17,Write,ACK
0.2665385,39,0x79,0x20,Read,NAK
0.266797,40,0x78,0x2B,Write,ACK
0.266996,41,0x79,0x20,Read,NAK
0.2672495,42,0x78,0x2B,Write,ACK
0.267448,43,0x79,0x20,Read,NAK
0.267699,44,0x78,0x2B,Write,ACK
0.2677915,44,0x78,0x20,Write,ACK
0.268545,45,0x78,0x17,Write,ACK
0.2687435,46,0x79,0x20,Read,NAK
0.2689935,47,0x78,0x17,Write,ACK
0.269086,47,0x78,0x20,Write,ACK
0.2698645,48,0x78,0x16,Write,ACK
0.2700635,49,0x79,0x20,Read,NAK
0.270328,50,0x78,0x16,Write,ACK
0.2704205,50,0x78,0x22,Write,ACK
0.270683,51,0x78,0x1D,Write,ACK
0.270882,52,0x79,0x70,Read,NAK
0.271144,53,0x78,0x1D,Write,ACK
0.2712365,53,0x78,0x70,Write,ACK
0.27201,54,0x78,0x18,Write,ACK
0.272209,55,0x79,0x60,Read,NAK
0.2724595,56,0x78,0x18,Write,ACK
0.272552,56,0x78,0x60,Write,ACK
0.2733065,57,0x78,0x19,Write,ACK
0.2735055,58,0x79,0x3C,Read,NAK
0.273756,59,0x78,0x19,Write,ACK
0.2738485,59,0x78,0x3C,Write,ACK
0.2746035,60,0x78,0x27,Write,ACK
0.2748025,61,0x79,0x28,Read,NAK
0.275053,62,0x78,0x27,Write,ACK
0.2751455,62,0x78,0x28,Write,ACK
0.275902,63,0x78,0x18,Write,ACK
0.276101,64,0x79,0x60,Read,NAK
0.276351,65,0x78,0x18,Write,ACK
0.276444,65,0x78,0x60,Write,ACK
0.2772015,66,0x78,0x33,Write,ACK
0.2774005,67,0x79,0x08,Read,NAK
0.2776565,68,0x78,0x33,Write,ACK
0.277855,69,0x79,0x08,Read,NAK
0.2781065,70,0x78,0x33,Write,ACK
0.278199,70,0x78,0x08,Write,ACK
0.2789535,71,0x78,0x33,Write,ACK
0.2791525,72,0x79,0x08,Read,NAK
0.279403,73,0x78,0x33,Write,ACK
0.2794955,73,0x78,0x08,Write,ACK
0.280254,74,0x78,0x33,Write,ACK
0.280453,75,0x79,0x08,Read,NAK
0.2807075,76,0x78,0x33,Write,ACK
0.280906,77,0x79,0x08,Read,NAK
0.2811565,78,0x78,0x33,Write,ACK
0.281249,78,0x78,0x08,Write,ACK
0.2820045,79,0x78,0x33,Write,ACK
0.282203,80,0x79,0x08,Read,NAK
0.282453,81,0x78,0x33,Write,ACK
0.2825455,81,0x78,0x08,Write,ACK
0.283299,82,0x78,0x33,Write,ACK
0.283498,83,0x79,0x08,Read,NAK
0.283748,84,0x78,0x33,Write,ACK
0.2838405,84,0x78,0x08,Write,ACK
0.284594,85,0x78,0x33,Write,ACK
0.284793,86,0x79,0x08,Read,NAK
0.285043,87,0x78,0x33,Write,ACK
0.2851355,87,0x78,0x08,Write,ACK
0.303593,88,0x78,0x18,Write,ACK
0.303792,89,0x79,0x60,Read,NAK
0.304045,90,0x78,0x18,Write,ACK
0.3041375,90,0x78,0x60,Write,ACK
0.3049025,91,0x78,0x18,Write,ACK
0.3051015,92,0x79,0x60,Read,NAK
0.305352,93,0x78,0x18,Write,ACK
0.3054445,93,0x78,0x60,Write,ACK
0.3062065,94,0x78,0x18,Write,ACK
0.3064055,95,0x79,0x60,Read,NAK
0.3066555,96,0x78,0x18,Write,ACK
0.306748,96,0x78,0x60,Write,ACK
0.307508,97,0x78,0x18,Write,ACK
0.307707,98,0x79,0x60,Read,NAK
0.3079585,99,0x78,0x18,Write,ACK
0.308051,99,0x78,0x60,Write,ACK
0.333857,100,0x78,0x18,Write,ACK
0.334056,101,0x79,0x60,Read,NAK
0.3343085,102,0x78,0x18,Write,ACK
0.334401,102,0x78,0x60,Write,ACK
0.3351655,103,0x78,0x18,Write,ACK
0.3353645,104,0x79,0x60,Read,NAK
0.3356165,105,0x78,0x18,Write,ACK
0.335709,105,0x78,0x60,Write,ACK
0.3364705,106,0x78,0x18,Write,ACK
0.3366695,107,0x79,0x60,Read,NAK
0.33692,108,0x78,0x18,Write,ACK
0.3370125,108,0x78,0x60,Write,ACK
0.3377745,109,0x78,0x18,Write,ACK
0.3379735,110,0x79,0x60,Read,NAK
0.3382235,111,0x78,0x18,Write,ACK
0.338316,111,0x78,0x60,Write,ACK
0.3886395,112,0x78,0x18,Write,ACK
0.3888385,113,0x79,0x60,Read,NAK
0.389093,114,0x78,0x18,Write,ACK
0.389186,114,0x78,0x60,Write,ACK
0.389953,115,0x78,0x18,Write,ACK
0.390152,116,0x79,0x60,Read,NAK
0.3904045,117,0x78,0x18,Write,ACK
0.390497,117,0x78,0x60,Write,ACK
0.3912615,118,0x78,0x18,Write,ACK
0.3914605,119,0x79,0x60,Read,NAK
0.391712,120,0x78,0x18,Write,ACK
0.3918045,120,0x78,0x60,Write,ACK
0.392566,121,0x78,0x18,Write,ACK
0.3927645,122,0x79,0x60,Read,NAK
0.3930165,123,0x78,0x18,Write,ACK
0.393109,123,0x78,0x60,Write,ACK
0.444298,124,0x78,0x18,Write,ACK
0.444497,125,0x79,0x60,Read,NAK
0.4447485,126,0x78,0x18,Write,ACK
0.444841,126,0x78,0x60,Write,ACK
0.460684,127,0x78,0x18,Write,ACK
0.4608825,128,0x79,0x60,Read,NAK
0.461135,129,0x78,0x18,Write,ACK
0.4612275,129,0x78,0x60,Write,ACK
0.461993,130,0x78,0x18,Write,ACK
0.4621915,131,0x79,0x60,Read,NAK
0.4624435,132,0x78,0x18,Write,ACK
0.462536,132,0x78,0x60,Write,ACK
0.4632985,133,0x78,0x18,Write,ACK
0.4634975,134,0x79,0x60,Read,NAK
0.46375,135,0x78,0x18,Write,ACK
0.4638425,135,0x78,0x60,Write,ACK
0.464604,136,0x78,0x18,Write,ACK
0.464803,137,0x79,0x60,Read,NAK
0.4650535,138,0x78,0x18,Write,ACK
0.465146,138,0x78,0x60,Write,ACK
0.4659455,139,0xD4,0x30,Write,ACK
0.4661805,140,0xD5,0x02,Read,NAK
0.466439,141,0xD4,0x30,Write,ACK
0.4665315,141,0xD4,0x82,Write,ACK
0.4667865,142,0xD4,0x30,Write,ACK
0.467019,143,0xD5,0x82,Read,NAK
0.467274,144,0xD4,0x30,Write,ACK
0.4673665,144,0xD4,0x82,Write,ACK
0.46762,145,0xD4,0x08,Write,ACK
0.4678525,146,0xD5,0x08,Read,NAK
0.4681065,147,0xD4,0x08,Write,ACK
0.468199,147,0xD4,0x08,Write,ACK
0.468452,148,0xD4,0x30,Write,ACK
0.4686845,149,0xD5,0x82,Read,NAK
0.4689385,150,0xD4,0x30,Write,ACK
0.469031,150,0xD4,0x02,Write,ACK
0.4692845,151,0xD4,0x30,Write,ACK
0.469517,152,0xD5,0x02,Read,NAK
0.469771,153,0xD4,0x30,Write,ACK
0.4698635,153,0xD4,0x82,Write,ACK
0.470117,154,0xD4,0x30,Write,ACK
0.4703495,155,0xD5,0x82,Read,NAK
0.4706035,156,0xD4,0x30,Write,ACK
0.470696,156,0xD4,0x82,Write,ACK
0.4709485,157,0xD4,0x30,Write,ACK
0.471181,158,0xD5,0x82,Read,NAK
0.471435,159,0xD4,0x30,Write,ACK
0.4715275,159,0xD4,0x02,Write,ACK
0.4717915,160,0xD4,0x30,Write,ACK
0.472024,161,0xD5,0x02,Read,NAK
0.4722775,162,0xD4,0x30,Write,ACK
0.4723705,162,0xD4,0x82,Write,ACK
0.4726235,163,0xD4,0x06,Write,ACK
0.4728565,164,0xD5,0x71,Read,NAK
0.47311,165,0xD4,0x06,Write,ACK
0.4732025,165,0xD4,0x71,Write,ACK
0.473456,166,0xD4,0x30,Write,ACK
0.4736885,167,0xD5,0x82,Read,NAK
0.473943,168,0xD4,0x30,Write,ACK
0.4740355,168,0xD4,0x02,Write,ACK
0.474313,169,0x78,0x0B,Write,ACK
0.474512,170,0x79,0x0C,Read,NAK
0.474768,171,0x78,0x0C,Write,ACK
0.474967,172,0x79,0x00,Read,NAK
0.4752205,173,0x78,0x15,Write,ACK
0.475419,174,0x79,0x00,Read,NAK
0.4756865,175,0x78,0x18,Write,ACK
0.4758855,176,0x79,0x60,Read,NAK
0.476136,177,0x78,0x18,Write,ACK
0.4762285,177,0x78,0x60,Write,ACK
0.4770105,178,0xAA,0x2C,Write,ACK
0.477464,179,0xAB,0x43,Read,NAK
0.480751,180,0x78,0x18,Write,ACK
0.4809495,181,0x79,0x60,Read,NAK
0.481202,182,0x78,0x18,Write,ACK
0.4812945,182,0x78,0x60,Write,ACK
0.5681965,183,0x78,0x29,Write,ACK
0.5683955,184,0x79,0x29,Read,NAK
0.5686495,185,0x78,0x29,Write,ACK
0.568742,185,0x78,0x2C,Write,ACK
0.6814075,186,0x78,0x29,Write,ACK
0.681606,187,0x79,0x2C,Read,NAK
0.6818605,188,0x78,0x29,Write,ACK
0.681953,188,0x78,0x2C,Write,ACK
0.7674205,189,0x78,0x16,Write,ACK
0.767619,190,0x79,0x22,Read,NAK
0.767887,191,0x78,0x16,Write,ACK
0.7679795,191,0x78,0x22,Write,ACK
0.768245,192,0x78,0x1D,Write,ACK
0.7684435,193,0x79,0x70,Read,NAK
0.7687075,194,0x78,0x1D,Write,ACK
0.7688,194,0x78,0x70,Write,ACK
0.7695845,195,0x78,0x18,Write,ACK
0.769783,196,0x79,0x60,Read,NAK
0.770031,197,0x78,0x18,Write,ACK
0.7701235,197,0x78,0x60,Write,ACK
0.7708835,198,0x78,0x18,Write,ACK
0.771082,199,0x79,0x60,Read,NAK
0.771328,200,0x78,0x18,Write,ACK
0.7714205,200,0x78,0x60,Write,ACK
0.7721755,201,0x78,0x18,Write,ACK
0.7723745,202,0x79,0x60,Read,NAK
0.772621,203,0x78,0x18,Write,ACK
0.7727135,203,0x78,0x60,Write,ACK
0.773467,204,0x78,0x18,Write,ACK
0.773666,205,0x79,0x60,Read,NAK
0.773912,206,0x78,0x18,Write,ACK
0.7740045,206,0x78,0x60,Write,ACK
0.7748015,207,0x78,0x29,Write,ACK
0.7750005,208,0x79,0x2C,Read,NAK
0.775247,209,0x78,0x29,Write,ACK
0.7753395,209,0x78,0x2C,Write,ACK
0.8586725,210,0x78,0x18,Write,ACK
0.8588715,211,0x79,0x60,Read,NAK
0.8591185,212,0x78,0x18,Write,ACK
0.859211,212,0x78,0x60,Write,ACK
0.859977,213,0x78,0x18,Write,ACK
0.8601755,214,0x79,0x60,Read,NAK
0.860422,215,0x78,0x18,Write,ACK
0.8605145,215,0x78,0x60,Write,ACK
0.861275,216,0x78,0x18,Write,ACK
0.861474,217,0x79,0x60,Read,NAK
0.8617205,218,0x78,0x18,Write,ACK
0.861813,218,0x78,0x60,Write,ACK
0.8625765,219,0x78,0x18,Write,ACK
0.8627755,220,0x79,0x60,Read,NAK
0.8630215,221,0x78,0x18,Write,ACK
0.863114,221,0x78,0x60,Write,ACK
0.8638765,222,0x78,0x18,Write,ACK
0.8640755,223,0x79,0x60,Read,NAK
0.864322,224,0x78,0x18,Write,ACK
0.8644145,224,0x78,0x60,Write,ACK
0.8651765,225,0x78,0x18,Write,ACK
0.865375,226,0x79,0x60,Read,NAK
0.865621,227,0x78,0x18,Write,ACK
0.8657135,227,0x78,0x60,Write,ACK
0.8664735,228,0x78,0x18,Write,ACK
0.8666725,229,0x79,0x60,Read,NAK
0.866917,230,0x78,0x18,Write,ACK
0.8670095,230,0x78,0x60,Write,ACK
0.8677705,231,0x78,0x18,Write,ACK
0.8679695,232,0x79,0x60,Read,NAK
0.868216,233,0x78,0x18,Write,ACK
0.8683085,233,0x78,0x60,Write,ACK
0.869069,234,0x78,0x18,Write,ACK
0.8692675,235,0x79,0x60,Read,NAK
0.8695135,236,0x78,0x18,Write,ACK
0.869606,236,0x78,0x60,Write,ACK
0.8703675,237,0x78,0x18,Write,ACK
0.870566,238,0x79,0x60,Read,NAK
0.8708125,239,0x78,0x18,Write,ACK
0.870905,239,0x78,0x60,Write,ACK
0.871666,240,0x78,0x18,Write,ACK
0.8718645,241,0x79,0x60,Read,NAK
0.87211,242,0x78,0x18,Write,ACK
0.8722025,242,0x78,0x60,Write,ACK
0.8729625,243,0x78,0x18,Write,ACK
0.8731615,244,0x79,0x60,Read,NAK
0.873406,245,0x78,0x18,Write,ACK
0.8734985,245,0x78,0x60,Write,ACK
0.8742595,246,0x78,0x18,Write,ACK
0.874458,247,0x79,0x60,Read,NAK
0.8747035,248,0x78,0x18,Write,ACK
0.874796,248,0x78,0x60,Write,ACK
0.875559,249,0x78,0x18,Write,ACK
0.8757575,250,0x79,0x60,Read,NAK
0.8760035,251,0x78,0x18,Write,ACK
0.876096,251,0x78,0x60,Write,ACK
0.876856,252,0x78,0x18,Write,ACK
0.8770545,253,0x79,0x60,Read,NAK
0.8773005,254,0x78,0x18,Write,ACK
0.877393,254,0x78,0x60,Write,ACK
0.8781555,255,0x78,0x18,Write,ACK
0.878354,256,0x79,0x60,Read,NAK
0.8785995,257,0x78,0x18,Write,ACK
0.878692,257,0x78,0x60,Write,ACK
0.879454,258,0x78,0x18,Write,ACK
0.879653,259,0x79,0x60,Read,NAK
0.8798975,260,0x78,0x18,Write,ACK
0.87999,260,0x78,0x60,Write,ACK
0.880751,261,0x78,0x18,Write,ACK
0.88095,262,0x79,0x60,Read,NAK
0.8811955,263,0x78,0x18,Write,ACK
0.8812885,263,0x78,0x60,Write,ACK
0.8820495,264,0x78,0x18,Write,ACK
0.8822485,265,0x79,0x60,Read,NAK
0.8824935,266,0x78,0x18,Write,ACK
0.882586,266,0x78,0x60,Write,ACK
0.8833475,267,0x78,0x18,Write,ACK
0.8835465,268,0x79,0x60,Read,NAK
0.883792,269,0x78,0x18,Write,ACK
0.8838845,269,0x78,0x60,Write,ACK
0.8846455,270,0x78,0x18,Write,ACK
0.884844,271,0x79,0x60,Read,NAK
0.885089,272,0x78,0x18,Write,ACK
0.8851815,272,0x78,0x60,Write,ACK
0.8859445,273,0x78,0x18,Write,ACK
0.8861435,274,0x79,0x60,Read,NAK
0.8863895,275,0x78,0x18,Write,ACK
0.886482,275,0x78,0x60,Write,ACK
0.8872445,276,0x78,0x18,Write,ACK
0.8874435,277,0x79,0x60,Read,NAK
0.8876895,278,0x78,0x18,Write,ACK
0.887782,278,0x78,0x60,Write,ACK
0.8885435,279,0x78,0x18,Write,ACK
0.888742,280,0x79,0x60,Read,NAK
0.888988,281,0x78,0x18,Write,ACK
0.8890805,281,0x78,0x60,Write,ACK
0.8898415,282,0x78,0x18,Write,ACK
0.89004,283,0x79,0x60,Read,NAK
0.8902865,284,0x78,0x18,Write,ACK
0.890379,284,0x78,0x60,Write,ACK
0.891139,285,0x78,0x18,Write,ACK
0.891338,286,0x79,0x60,Read,NAK
0.891585,287,0x78,0x18,Write,ACK
0.8916775,287,0x78,0x60,Write,ACK
0.892438,288,0x78,0x18,Write,ACK
0.892637,289,0x79,0x60,Read,NAK
0.892883,290,0x78,0x18,Write,ACK
0.8929755,290,0x78,0x60,Write,ACK
0.8937365,291,0x78,0x18,Write,ACK
0.8939355,292,0x79,0x60,Read,NAK
0.894181,293,0x78,0x18,Write,ACK
0.8942735,293,0x78,0x60,Write,ACK
0.895036,294,0x78,0x18,Write,ACK
0.8952345,295,0x79,0x60,Read,NAK
0.895482,296,0x78,0x18,Write,ACK
0.8955745,296,0x78,0x60,Write,ACK
0.896335,297,0x78,0x18,Write,ACK
0.896534,298,0x79,0x60,Read,NAK
0.896779,299,0x78,0x18,Write,ACK
0.896872,299,0x78,0x60,Write,ACK
0.8976325,300,0x78,0x18,Write,ACK
0.8978315,301,0x79,0x60,Read,NAK
0.898077,302,0x78,0x18,Write,ACK
0.8981695,302,0x78,0x60,Write,ACK
0.89893,303,0x78,0x18,Write,ACK
0.8991285,304,0x79,0x60,Read,NAK
0.899374,305,0x78,0x18,Write,ACK
0.8994665,305,0x78,0x60,Write,ACK
0.9002275,306,0x78,0x18,Write,ACK
0.900426,307,0x79,0x60,Read,NAK
0.900672,308,0x78,0x18,Write,ACK
0.9007645,308,0x78,0x60,Write,ACK
0.901526,309,0x78,0x18,Write,ACK
0.9017245,310,0x79,0x60,Read,NAK
0.9019705,311,0x78,0x18,Write,ACK
0.902063,311,0x78,0x60,Write,ACK
0.9028235,312,0x78,0x18,Write,ACK
0.903022,313,0x79,0x60,Read,NAK
0.9032675,314,0x78,0x18,Write,ACK
0.90336,314,0x78,0x60,Write,ACK
0.90412,315,0x78,0x18,Write,ACK
0.904319,316,0x79,0x60,Read,NAK
0.904563,317,0x78,0x18,Write,ACK
0.904656,317,0x78,0x60,Write,ACK
0.9054185,318,0x78,0x18,Write,ACK
0.905617,319,0x79,0x60,Read,NAK
0.9058625,320,0x78,0x18,Write,ACK
0.905955,320,0x78,0x60,Write,ACK
0.906717,321,0x78,0x18,Write,ACK
0.906916,322,0x79,0x60,Read,NAK
0.9071615,323,0x78,0x18,Write,ACK
0.907254,323,0x78,0x60,Write,ACK
0.908016,324,0x78,0x18,Write,ACK
0.908215,325,0x79,0x60,Read,NAK
0.9084605,326,0x78,0x18,Write,ACK
0.908553,326,0x78,0x60,Write,ACK
0.909314,327,0x78,0x18,Write,ACK
0.9095125,328,0x79,0x60,Read,NAK
0.9097585,329,0x78,0x18,Write,ACK
0.9098515,329,0x78,0x60,Write,ACK
0.910611,330,0x78,0x18,Write,ACK
0.9108095,331,0x79,0x60,Read,NAK
0.9110555,332,0x78,0x18,Write,ACK
0.911148,332,0x78,0x60,Write,ACK
0.9119095,333,0x78,0x18,Write,ACK
0.9121085,334,0x79,0x60,Read,NAK
0.912355,335,0x78,0x18,Write,ACK
0.9124475,335,0x78,0x60,Write,ACK
0.913209,336,0x78,0x18,Write,ACK
0.913408,337,0x79,0x60,Read,NAK
0.9136535,338,0x78,0x18,Write,ACK
0.913746,338,0x78,0x60,Write,ACK
0.9145075,339,0x78,0x18,Write,ACK
0.9147065,340,0x79,0x60,Read,NAK
0.9149525,341,0x78,0x18,Write,ACK
0.915045,341,0x78,0x60,Write,ACK
0.915806,342,0x78,0x18,Write,ACK
0.916005,343,0x79,0x60,Read,NAK
0.916251,344,0x78,0x18,Write,ACK
0.9163435,344,0x78,0x60,Write,ACK
0.917106,345,0x78,0x18,Write,ACK
0.9173045,346,0x79,0x60,Read,NAK
0.9175505,347,0x78,0x18,Write,ACK
0.917643,347,0x78,0x60,Write,ACK
0.918405,348,0x78,0x18,Write,ACK
0.918604,349,0x79,0x60,Read,NAK
0.9188495,350,0x78,0x18,Write,ACK
0.918942,350,0x78,0x60,Write,ACK
0.9197035,351,0x78,0x18,Write,ACK
0.919902,352,0x79,0x60,Read,NAK
0.920148,353,0x78,0x18,Write,ACK
0.9202405,353,0x78,0x60,Write,ACK
0.921001,354,0x78,0x18,Write,ACK
0.9211995,355,0x79,0x60,Read,NAK
0.921446,356,0x78,0x18,Write,ACK
0.9215385,356,0x78,0x60,Write,ACK
0.922299,357,0x78,0x18,Write,ACK
0.922498,358,0x79,0x60,Read,NAK
0.9227435,359,0x78,0x18,Write,ACK
0.922836,359,0x78,0x60,Write,ACK
0.923597,360,0x78,0x18,Write,ACK
0.923796,361,0x79,0x60,Read,NAK
0.9240415,362,0x78,0x18,Write,ACK
0.924134,362,0x78,0x60,Write,ACK
0.924894,363,0x78,0x18,Write,ACK
0.9250925,364,0x79,0x60,Read,NAK
0.925338,365,0x78,0x18,Write,ACK
0.9254305,365,0x78,0x60,Write,ACK
0.9261915,366,0x78,0x18,Write,ACK
0.92639,367,0x79,0x60,Read,NAK
0.9266355,368,0x78,0x18,Write,ACK
0.926728,368,0x78,0x60,Write,ACK
0.9274895,369,0x78,0x18,Write,ACK
0.9276885,370,0x79,0x60,Read,NAK
0.927934,371,0x78,0x18,Write,ACK
0.9280265,371,0x78,0x60,Write,ACK
0.9287875,372,0x78,0x18,Write,ACK
0.928986,373,0x79,0x60,Read,NAK
0.929231,374,0x78,0x18,Write,ACK
0.9293235,374,0x78,0x60,Write,ACK
0.9300845,375,0x78,0x18,Write,ACK
0.9302835,376,0x79,0x60,Read,NAK
0.930529,377,0x78,0x18,Write,ACK
0.9306215,377,0x78,0x60,Write,ACK
0.931385,378,0x78,0x18,Write,ACK
0.931584,379,0x79,0x60,Read,NAK
0.93183,380,0x78,0x18,Write,ACK
0.9319225,380,0x78,0x60,Write,ACK
0.9326845,381,0x78,0x18,Write,ACK
0.932883,382,0x79,0x60,Read,NAK
0.933129,383,0x78,0x18,Write,ACK
0.9332215,383,0x78,0x60,Write,ACK
0.9339835,384,0x78,0x18,Write,ACK
0.9341825,385,0x79,0x60,Read,NAK
0.934429,386,0x78,0x18,Write,ACK
0.9345215,386,0x78,0x60,Write,ACK
0.935282,387,0x78,0x18,Write,ACK
0.935481,388,0x79,0x60,Read,NAK
0.935727,389,0x78,0x18,Write,ACK
0.9358195,389,0x78,0x60,Write,ACK
0.93658,390,0x78,0x18,Write,ACK
0.936779,391,0x79,0x60,Read,NAK
0.937025,392,0x78,0x18,Write,ACK
0.9371175,392,0x78,0x60,Write,ACK
0.937878,393,0x78,0x18,Write,ACK
0.938077,394,0x79,0x60,Read,NAK
0.938323,395,0x78,0x18,Write,ACK
0.9384155,395,0x78,0x60,Write,ACK
0.9391785,396,0x78,0x18,Write,ACK
0.9393775,397,0x79,0x60,Read,NAK
0.939623,398,0x78,0x18,Write,ACK
0.9397155,398,0x78,0x60,Write,ACK
0.9404765,399,0x78,0x18,Write,ACK
0.9406755,400,0x79,0x60,Read,NAK
0.94092,401,0x78,0x18,Write,ACK
0.9410125,401,0x78,0x60,Write,ACK
0.9417735,402,0x78,0x18,Write,ACK
0.9419725,403,0x79,0x60,Read,NAK
0.9422185,404,0x78,0x18,Write,ACK
0.942311,404,0x78,0x60,Write,ACK
0.943072,405,0x78,0x18,Write,ACK
0.9432705,406,0x79,0x60,Read,NAK
0.943518,407,0x78,0x18,Write,ACK
0.9436105,407,0x78,0x60,Write,ACK
0.944373,408,0x78,0x18,Write,ACK
0.944572,409,0x79,0x60,Read,NAK
0.9448195,410,0x78,0x18,Write,ACK
0.944912,410,0x78,0x60,Write,ACK
0.945674,411,0x78,0x18,Write,ACK
0.9458725,412,0x79,0x60,Read,NAK
0.946119,413,0x78,0x18,Write,ACK
0.9462115,413,0x78,0x60,Write,ACK
0.9469725,414,0x78,0x18,Write,ACK
0.947171,415,0x79,0x60,Read,NAK
0.947417,416,0x78,0x18,Write,ACK
0.94751,416,0x78,0x60,Write,ACK
0.94827,417,0x78,0x18,Write,ACK
0.948469,418,0x79,0x60,Read,NAK
0.948715,419,0x78,0x18,Write,ACK
0.9488075,419,0x78,0x60,Write,ACK
0.9495685,420,0x78,0x18,Write,ACK
0.949767,421,0x79,0x60,Read,NAK
0.950013,422,0x78,0x18,Write,ACK
0.9501055,422,0x78,0x60,Write,ACK
0.9508665,423,0x78,0x18,Write,ACK
0.951065,424,0x79,0x60,Read,NAK
0.9513105,425,0x78,0x18,Write,ACK
0.951403,425,0x78,0x60,Write,ACK
0.9521635,426,0x78,0x18,Write,ACK
0.9523625,427,0x79,0x60,Read,NAK
0.9526085,428,0x78,0x18,Write,ACK
0.952701,428,0x78,0x60,Write,ACK
0.9534635,429,0x78,0x18,Write,ACK
0.953662,430,0x79,0x60,Read,NAK
0.953908,431,0x78,0x18,Write,ACK
0.9540005,431,0x78,0x60,Write,ACK
0.9547625,432,0x78,0x18,Write,ACK
0.9549615,433,0x79,0x60,Read,NAK
0.955207,434,0x78,0x18,Write,ACK
0.9552995,434,0x78,0x60,Write,ACK
0.956061,435,0x78,0x18,Write,ACK
0.95626,436,0x79,0x60,Read,NAK
0.9565055,437,0x78,0x18,Write,ACK
0.956598,437,0x78,0x60,Write,ACK
0.95736,438,0x78,0x18,Write,ACK
0.9575585,439,0x79,0x60,Read,NAK
0.9578055,440,0x78,0x18,Write,ACK
0.957898,440,0x78,0x60,Write,ACK
0.9586605,441,0x78,0x18,Write,ACK
0.9588595,442,0x79,0x60,Read,NAK
0.959104,443,0x78,0x18,Write,ACK
0.9591965,443,0x78,0x60,Write,ACK
1.094619,444,0x78,0x18,Write,ACK
1.0948175,445,0x79,0x60,Read,NAK
1.095067,446,0x78,0x18,Write,ACK
1.0951595,446,0x78,0x60,Write,ACK
1.095924,447,0x78,0x18,Write,ACK
1.0961225,448,0x79,0x60,Read,NAK
1.0963705,449,0x78,0x18,Write,ACK
1.096463,449,0x78,0x60,Write,ACK
1.097219,450,0x78,0x18,Write,ACK
1.097418,451,0x79,0x60,Read,NAK
1.097664,452,0x78,0x18,Write,ACK
1.0977565,452,0x78,0x60,Write,ACK
1.0985105,453,0x78,0x18,Write,ACK
1.098709,454,0x79,0x60,Read,NAK
1.0989535,455,0x78,0x18,Write,ACK
1.0990465,455,0x78,0x60,Write,ACK
2.907134,456,0x78,0x5C,Write,ACK
2.9072225,457,0x79,0x23,Read,NAK
2.9074035,458,0x78,0x36,Write,ACK
2.907483,459,0x79,0x02,Read,ACK
2.907509,459,0x79,0x02,Read,ACK
2.907535,459,0x79,0x00,Read,ACK
2.907561,459,0x79,0x00,Read,ACK
2.907587,459,0x79,0x01,Read,ACK
2.9076135,459,0x79,0x02,Read,ACK
2.9076395,459,0x79,0x06,Read,ACK
2.9076655,459,0x79,0x02,Read,NAK
2.907768,460,0x78,0x3E,Write,ACK
2.907846,461,0x79,0x00,Read,NAK
2.907949,462,0x78,0x3F,Write,ACK
2.908026,463,0x79,0x00,Read,NAK
2.908128,464,0x78,0x40,Write,ACK
2.908205,465,0x79,0x1C,Read,NAK
2.9083765,466,0x78,0x36,Write,ACK
2.9084025,466,0x78,0x01,Write,ACK
2.9085065,467,0x78,0x38,Write,ACK
2.9085325,467,0x78,0x08,Write,ACK
2.908631,468,0x78,0x40,Write,ACK
2.908657,468,0x78,0x18,Write,ACK
2.9087565,469,0x78,0x39,Write,ACK
2.9087825,469,0x78,0x08,Write,ACK
2.90888,470,0x78,0x40,Write,ACK
2.908906,470,0x78,0x10,Write,ACK
2.9090045,471,0x78,0x3A,Write,ACK
2.909031,471,0x78,0x09,Write,ACK
2.9091285,472,0x78,0x3B,Write,ACK
2.9091545,472,0x78,0x01,Write,ACK
2.9092525,473,0x78,0x3D,Write,ACK
2.9092785,473,0x78,0x00,Write,ACK
2.9093775,474,0x78,0x0D,Write,ACK
2.909404,474,0x78,0xFF,Write,ACK
2.9095015,475,0x78,0x0E,Write,ACK
2.9095275,475,0x78,0x0F,Write,ACK
2.9096245,476,0x78,0x0F,Write,ACK
2.9096505,476,0x78,0xFF,Write,ACK
2.9097475,477,0x78,0x10,Write,ACK
2.9097735,477,0x78,0xFF,Write,ACK
2.9097995,477,0x78,0x11,Write,ACK
2.9098255,477,0x78,0xFF,Write,ACK
2.9099225,478,0x78,0x12,Write,ACK
2.9099485,478,0x78,0xFF,Write,ACK
2.910047,479,0x78,0x06,Write,ACK
2.910123,480,0x79,0x00,Read,NAK
2.910224,481,0x78,0x07,Write,ACK
2.9103,482,0x79,0x00,Read,NAK
2.9104005,483,0x78,0x08,Write,ACK
2.910477,484,0x79,0x0C,Read,ACK
2.910503,484,0x79,0x00,Read,NAK
2.9106035,485,0x78,0x0A,Write,ACK
2.9106805,486,0x79,0x00,Read,NAK
2.9107805,487,0x78,0x0B,Write,ACK
2.910857,488,0x79,0x00,Read,NAK
2.9109665,489,0x78,0x36,Write,ACK
2.910993,489,0x78,0x31,Write,ACK
2.911094,490,0x78,0x37,Write,ACK
2.91112,490,0x78,0x32,Write,ACK
2.9112205,491,0x78,0x38,Write,ACK
2.911247,491,0x78,0x38,Write,ACK
2.911348,492,0x78,0x39,Write,ACK
2.911374,492,0x78,0x38,Write,ACK
2.9114755,493,0x78,0x3A,Write,ACK
2.9115015,493,0x78,0x39,Write,ACK
2.911602,494,0x78,0x3B,Write,ACK
2.911628,494,0x78,0x31,Write,ACK
2.911729,495,0x78,0x3C,Write,ACK
2.911755,495,0x78,0x36,Write,ACK
2.911856,496,0x78,0x3D,Write,ACK
2.911882,496,0x78,0x30,Write,ACK
2.9122235,497,0x78,0x0D,Write,ACK
2.9122495,497,0x78,0x7F,Write,ACK
2.9123535,498,0x78,0x0E,Write,ACK
2.9123795,498,0x78,0x0E,Write,ACK
2.9124895,499,0x78,0x41,Write,ACK
2.912567,500,0x79,0x60,Read,NAK
2.9126695,501,0x78,0x41,Write,ACK
2.9126955,501,0x78,0x60,Write,ACK
2.912879,502,0x78,0x16,Write,ACK
2.91296,503,0x79,0x22,Read,NAK
2.9130635,504,0x78,0x1D,Write,ACK
2.9131405,505,0x79,0x70,Read,NAK
2.9132415,506,0x78,0x4F,Write,ACK
2.9133175,507,0x79,0xC7,Read,NAK
2.913419,508,0x78,0x5D,Write,ACK
2.913507,509,0x79,0x51,Read,NAK
2.9136115,510,0x78,0x43,Write,ACK
2.913689,511,0x79,0x38,Read,NAK
2.9137895,512,0x78,0x44,Write,ACK
2.9138665,513,0x79,0x3A,Read,NAK
2.9139665,514,0x78,0x45,Write,ACK
2.9140435,515,0x79,0x30,Read,NAK
2.914145,516,0x78,0x1D,Write,ACK
2.914171,516,0x78,0x71,Write,ACK
2.9142695,517,0x78,0x1D,Write,ACK
2.914296,517,0x78,0x41,Write,ACK
2.914703,518,0x78,0x17,Write,ACK
2.9147855,519,0x79,0x20,Read,NAK
2.914889,520,0x78,0x1E,Write,ACK
2.914966,521,0x79,0x40,Read,NAK
2.915067,522,0x78,0x50,Write,ACK
2.915143,523,0x79,0x4F,Read,NAK
2.9152445,524,0x78,0x5D,Write,ACK
2.9153205,525,0x79,0x51,Read,NAK
2.915422,526,0x78,0x1E,Write,ACK
2.915448,526,0x78,0x70,Write,ACK
2.915546,527,0x78,0x1E,Write,ACK
2.915572,527,0x78,0x71,Write,ACK
2.9159755,528,0x78,0x18,Write,ACK
2.9160575,529,0x79,0x60,Read,NAK
2.9161605,530,0x78,0x1F,Write,ACK
2.9162375,531,0x79,0x40,Read,NAK
2.9163395,532,0x78,0x51,Write,ACK
2.916416,533,0x79,0x15,Read,NAK
2.9165165,534,0x78,0x5D,Write,ACK
2.916593,535,0x79,0x51,Read,NAK
2.9166935,536,0x78,0x1F,Write,ACK
2.9167195,536,0x78,0x70,Write,ACK
2.9168185,537,0x78,0x51,Write,ACK
2.9168445,537,0x78,0xD5,Write,ACK
2.91722,538,0x78,0x19,Write,ACK
2.917302,539,0x79,0x3C,Read,NAK
2.917405,540,0x78,0x20,Write,ACK
2.917482,541,0x79,0x40,Read,NAK
2.917583,542,0x78,0x52,Write,ACK
2.9176595,543,0x79,0x1C,Read,NAK
2.9177595,544,0x78,0x5D,Write,ACK
2.9178355,545,0x79,0x51,Read,NAK
2.9179365,546,0x78,0x20,Write,ACK
2.9179625,546,0x78,0x70,Write,ACK
2.918061,547,0x78,0x52,Write,ACK
2.918087,547,0x78,0xDC,Write,ACK
2.9184975,548,0x78,0x23,Write,ACK
2.9185795,549,0x79,0x08,Read,NAK
2.918683,550,0x78,0x24,Write,ACK
2.91876,551,0x79,0xCB,Read,NAK
2.918861,552,0x78,0x46,Write,ACK
2.9189375,553,0x79,0x2A,Read,NAK
2.919038,554,0x78,0x5D,Write,ACK
2.9191145,555,0x79,0x51,Read,NAK
2.919216,556,0x78,0x46,Write,ACK
2.919242,556,0x78,0x6A,Write,ACK
2.9193405,557,0x78,0x23,Write,ACK
2.9193665,557,0x78,0xC8,Write,ACK
2.9198875,558,0x78,0x25,Write,ACK
2.91997,559,0x79,0x10,Read,NAK
2.9200735,560,0x78,0x26,Write,ACK
2.920151,561,0x79,0xC3,Read,NAK
2.9202525,562,0x78,0x47,Write,ACK
2.920329,563,0x79,0xC7,Read,NAK
2.9204295,564,0x78,0x5D,Write,ACK
2.920506,565,0x79,0x51,Read,NAK
2.921085,566,0x78,0x27,Write,ACK
2.9211675,567,0x79,0x28,Read,NAK
2.921271,568,0x78,0x28,Write,ACK
2.9213485,569,0x79,0xDA,Read,NAK
2.9214495,570,0x78,0x48,Write,ACK
2.921526,571,0x79,0x23,Read,NAK
2.921627,572,0x78,0x5D,Write,ACK
2.9217035,573,0x79,0x51,Read,NAK
2.9218035,574,0x78,0x48,Write,ACK
2.92183,574,0x78,0x63,Write,ACK
2.921928,575,0x78,0x27,Write,ACK
2.921954,575,0x78,0xE8,Write,ACK
2.9223275,576,0x78,0x29,Write,ACK
2.9224095,577,0x79,0x2C,Read,NAK
2.9225135,578,0x78,0x2A,Write,ACK
2.9225905,579,0x79,0xDA,Read,NAK
2.922692,580,0x78,0x49,Write,ACK
2.9227685,581,0x79,0x63,Read,NAK
2.9228695,582,0x78,0x5D,Write,ACK
2.922945,583,0x79,0x51,Read,NAK
2.923047,584,0x78,0x29,Write,ACK
2.923073,584,0x78,0xEC,Write,ACK
2.9231715,585,0x78,0x49,Write,ACK
2.9231975,585,0x78,0xE3,Write,ACK
2.9236045,586,0x78,0x2B,Write,ACK
2.923687,587,0x79,0x20,Read,NAK
2.9237905,588,0x78,0x2C,Write,ACK
2.923867,589,0x79,0xDA,Read,NAK
2.9239675,590,0x78,0x4A,Write,ACK
2.9240435,591,0x79,0x07,Read,NAK
2.9241445,592,0x78,0x5D,Write,ACK
2.9242205,593,0x79,0x51,Read,NAK
2.9243225,594,0x78,0x2B,Write,ACK
2.9243485,594,0x78,0x10,Write,ACK
2.9244475,595,0x78,0x2B,Write,ACK
2.9244735,595,0x78,0xD0,Write,ACK
2.9245715,596,0x78,0x35,Write,ACK
2.9245975,596,0x78,0x20,Write,ACK
2.924996,597,0x78,0x2D,Write,ACK
2.9250775,598,0x79,0x28,Read,NAK
2.925182,599,0x78,0x2E,Write,ACK
2.9252595,600,0x79,0xD2,Read,NAK
2.925361,601,0x78,0x4B,Write,ACK
2.9254375,602,0x79,0xC7,Read,NAK
2.9255375,603,0x78,0x5D,Write,ACK
2.925614,604,0x79,0x51,Read,NAK
2.9260055,605,0x78,0x2F,Write,ACK
2.926087,606,0x79,0x32,Read,NAK
2.92619,607,0x78,0x30,Write,ACK
2.9262675,608,0x79,0xD2,Read,NAK
2.9263685,609,0x78,0x4C,Write,ACK
2.9264445,610,0x79,0xC7,Read,NAK
2.9265455,611,0x78,0x5D,Write,ACK
2.926622,612,0x79,0x51,Read,NAK
2.9269845,613,0x78,0x31,Write,ACK
2.9270675,614,0x79,0x08,Read,NAK
2.9271715,615,0x78,0x32,Write,ACK
2.9272485,616,0x79,0xC3,Read,NAK
2.927349,617,0x78,0x4D,Write,ACK
2.927426,618,0x79,0xC7,Read,NAK
2.9275265,619,0x78,0x5D,Write,ACK
2.927603,620,0x79,0x51,Read,NAK
2.928104,621,0x78,0x33,Write,ACK
2.928187,622,0x79,0x08,Read,NAK
2.9282905,623,0x78,0x34,Write,ACK
2.928368,624,0x79,0xCB,Read,NAK
2.9284685,625,0x78,0x4E,Write,ACK
2.928545,626,0x79,0x5C,Read,NAK
2.928646,627,0x78,0x5D,Write,ACK
2.9287225,628,0x79,0x51,Read,NAK
2.928824,629,0x78,0x33,Write,ACK
2.92885,629,0x78,0xC8,Write,ACK
2.9368995,630,0x78,0x38,Write,ACK
2.9369255,630,0x78,0x30,Write,ACK
4.2427515,634,0x98,0x09,Write,ACK
4.2427775,634,0x98,0x40,Write,ACK
4.2428885,635,0x98,0x19,Write,ACK
4.2429145,635,0x98,0xFF,Write,ACK
4.2430205,636,0x98,0x20,Write,ACK
4.243047,636,0x98,0xFF,Write,ACK
4.243153,637,0x98,0x09,Write,ACK
4.2431795,637,0x98,0x44,Write,ACK
4.2432845,638,0x98,0x0A,Write,ACK
4.2433105,638,0x98,0x08,Write,ACK
4.2434155,639,0x98,0x0B,Write,ACK
4.2434415,639,0x98,0xBF,Write,ACK
4.2435465,640,0x98,0x0C,Write,ACK
4.2435725,640,0x98,0x00,Write,ACK
4.2436785,641,0x98,0x0E,Write,ACK
4.2437045,641,0x98,0x00,Write,ACK
4.243809,642,0x98,0x0D,Write,ACK
4.243835,642,0x98,0xBF,Write,ACK
4.243939,643,0x98,0x00,Write,ACK
4.244021,644,0x99,0x1F,Read,NAK
4.2441305,645,0x98,0x10,Write,ACK
4.244213,646,0x99,0x00,Read,NAK
4.2443215,647,0x98,0x01,Write,ACK
4.244404,648,0x99,0x1F,Read,NAK
4.244514,649,0x98,0x11,Write,ACK
4.24454,649,0x98,0x02,Write,ACK
4.244644,650,0x98,0x12,Write,ACK
4.24467,650,0x98,0x00,Write,ACK
4.2453215,651,0x98,0x09,Write,ACK
4.2453475,651,0x98,0x04,Write,ACK
4.2454695,652,0x98,0x19,Write,ACK
4.2454955,652,0x98,0x9A,Write,ACK
4.245603,653,0x98,0x20,Write,ACK
4.245629,653,0x98,0x9A,Write,ACK
4.2457365,654,0x98,0x00,Write,ACK
4.2458195,655,0x99,0x1F,Read,NAK
4.2459295,656,0x98,0x10,Write,ACK
4.246012,657,0x99,0x00,Read,NAK
4.2461215,658,0x98,0x01,Write,ACK
4.2462035,659,0x99,0x1F,Read,NAK
4.2463925,660,0x98,0x0D,Write,ACK
4.2464185,660,0x98,0x57,Write,ACK
4.2506855,661,0xD4,0x30,Write,ACK
4.2507765,662,0xD5,0x02,Read,NAK
4.25088,663,0xD4,0x30,Write,ACK
4.250906,663,0xD4,0x82,Write,ACK
4.2510125,664,0xD4,0x06,Write,ACK
4.2510955,665,0xD5,0x71,Read,NAK
4.2512055,666,0xD4,0x06,Write,ACK
4.2512315,666,0xD4,0x71,Write,ACK
4.251337,667,0xD4,0x04,Write,ACK
4.2514195,668,0xD5,0x0E,Read,NAK
4.2515285,669,0xD4,0x04,Write,ACK
4.2515545,669,0xD4,0x0E,Write,ACK
4.2516595,670,0xD4,0x30,Write,ACK
4.251742,671,0xD5,0x82,Read,NAK
4.2518505,672,0xD4,0x30,Write,ACK
4.2518765,672,0xD4,0x02,Write,ACK
4.2529995,673,0xAA,0x0A,Write,ACK
4.2533085,674,0xAB,0x01,Read,ACK
4.2534605,674,0xAB,0x01,Read,NAK
4.253651,675,0xAA,0x08,Write,ACK
4.2539605,676,0xAB,0x18,Read,ACK
4.2541125,676,0xAB,0x0F,Read,NAK
4.2543605,677,0xAA,0x2C,Write,ACK
4.2546675,678,0xAB,0x43,Read,ACK
4.254817,678,0xAB,0x00,Read,NAK
4.255005,679,0xAA,0x06,Write,ACK
4.255314,680,0xAB,0xC1,Read,ACK
4.255466,680,0xAB,0x0B,Read,NAK
4.255702,681,0xAA,0x0A,Write,ACK
4.256099,682,0xAB,0x01,Read,ACK
4.2562525,682,0xAB,0x01,Read,NAK
4.256452,683,0xAA,0x08,Write,ACK
4.25712,684,0xAB,0x18,Read,ACK
4.257273,684,0xAB,0x0F,Read,NAK
4.2575575,685,0xAA,0x2C,Write,ACK
4.257867,686,0xAB,0x43,Read,ACK
4.2580175,686,0xAB,0x00,Read,NAK
4.262197,687,0xAA,0x06,Write,ACK
4.2625085,688,0xAB,0xC1,Read,ACK
4.2626615,688,0xAB,0x0B,Read,NAK
4.2632875,689,0x78,0x38,Write,ACK
4.2633135,689,0x78,0x38,Write,ACK
4.296272,690,0x98,0x09,Write,ACK
4.296298,690,0x98,0x44,Write,ACK
4.296407,691,0x98,0x02,Write,ACK
4.296491,692,0x99,0x10,Read,NAK
4.296604,693,0x98,0x00,Write,ACK
4.2966875,694,0x99,0x5F,Read,NAK
4.296798,695,0x98,0x10,Write,ACK
4.296881,696,0x99,0x00,Read,NAK
4.296991,697,0x98,0x01,Write,ACK
4.2970735,698,0x99,0x61,Read,NAK
4.297262,699,0x98,0x0E,Write,ACK
4.297288,699,0x98,0x54,Write,ACK
4.297394,700,0x98,0x0D,Write,ACK
4.29742,700,0x98,0x6D,Write,ACK
4.297534,701,0x98,0x0F,Write,ACK
4.29756,701,0x98,0x01,Write,ACK
4.3167665,702,0x78,0x12,Write,ACK
4.3167925,702,0x78,0x7F,Write,ACK
4.3168995,703,0x78,0x0D,Write,ACK
4.3169255,703,0x78,0x7D,Write,ACK
4.3170535,704,0x78,0x05,Write,ACK
4.31713,705,0x79,0x02,Read,NAK
4.3172355,706,0x78,0x0B,Write,ACK
4.31731,707,0x79,0x00,Read,NAK
4.3174185,708,0x78,0x12,Write,ACK
4.3174445,708,0x78,0x3F,Write,ACK
4.349755,709,0x98,0x02,Write,ACK
4.3498415,710,0x99,0x10,Read,NAK
4.349946,711,0x98,0x09,Write,ACK
4.349972,711,0x98,0x04,Write,ACK
4.7629465,712,0xD4,0x35,Write,ACK
4.7630335,713,0xD5,0x00,Read,ACK
4.7630595,713,0xD5,0x00,Read,ACK
4.7630855,713,0xD5,0x00,Read,ACK
4.7631115,713,0xD5,0x00,Read,ACK
4.763138,713,0xD5,0x11,Read,ACK
4.763164,713,0xD5,0x00,Read,NAK
5.632852,714,0xD0,0x01,Write,ACK
5.632878,714,0xD0,0xFF,Write,ACK
5.632991,715,0xD0,0x03,Write,ACK
5.633017,715,0xD0,0x02,Write,ACK
5.6331245,716,0x78,0x42,Write,ACK
5.633207,717,0x79,0x17,Read,NAK
5.6333175,718,0x78,0x42,Write,ACK
5.6333435,718,0x78,0x13,Write,ACK
5.633463,719,0xD0,0x04,Write,ACK
5.633489,719,0xD0,0x1A,Write,ACK
5.6476165,720,0xD0,0x07,Write,ACK
5.6477,721,0xD1,0x05,Read,ACK
5.647726,721,0xD1,0x30,Read,ACK
5.647752,721,0xD1,0x4E,Read,ACK
5.647778,721,0xD1,0x08,Read,ACK
5.6478045,721,0xD1,0x0A,Read,ACK
5.6478305,721,0xD1,0x0C,Read,ACK
5.6478565,721,0xD1,0x11,Read,NAK
5.647968,722,0xD0,0x04,Write,ACK
5.647994,722,0xD0,0x1A,Write,ACK
5.6621195,723,0xD0,0x0E,Write,ACK
5.6622025,724,0xD1,0x00,Read,ACK
5.6622285,724,0xD1,0x00,Read,ACK
5.6622545,724,0xD1,0x00,Read,ACK
5.6622805,724,0xD1,0x01,Read,ACK
5.6623065,724,0xD1,0x01,Read,ACK
5.6623325,724,0xD1,0x00,Read,ACK
5.6623585,724,0xD1,0x01,Read,NAK
5.662923,725,0x78,0x0D,Write,ACK
5.662949,725,0x78,0x75,Write,ACK
5.6822845,726,0x78,0x3D,Write,ACK
5.6823105,726,0x78,0x38,Write,ACK
6.763397,727,0xAA,0x0A,Write,ACK
6.763709,728,0xAB,0x01,Read,ACK
6.7638625,728,0xAB,0x01,Read,NAK
6.7640575,729,0xAA,0x08,Write,ACK
6.764369,730,0xAB,0x19,Read,ACK
6.7645225,730,0xAB,0x0F,Read,NAK
6.764765,731,0xAA,0x2C,Write,ACK
6.7650745,732,0xAB,0x43,Read,ACK
6.7652255,732,0xAB,0x00,Read,NAK
6.7654075,733,0xAA,0x06,Write,ACK
6.765719,734,0xAB,0xC1,Read,ACK
6.7658725,734,0xAB,0x0B,Read,NAK
6.785672,735,0x38,0x00,Write,ACK
6.785698,735,0x38,0x00,Write,ACK
6.7857245,735,0x38,0x00,Write,ACK
6.7858425,736,0x38,0x63,Write,ACK
6.7858685,736,0x38,0xA8,Write,ACK
6.7858945,736,0x38,0xD0,Write,ACK
6.893047,737,0x38,0x63,Write,ACK
6.893073,737,0x38,0xE8,Write,ACK
6.893099,737,0x38,0xD8,Write,ACK
6.8932075,738,0x38,0xFA,Write,ACK
6.8932335,738,0x38,0x37,Write,ACK
6.8932595,738,0x38,0x01,Write,ACK
6.893367,739,0x38,0x73,Write,ACK
6.893393,739,0x38,0x11,Write,ACK
6.893419,739,0x38,0x14,Write,ACK
6.8935255,740,0x38,0x93,Write,ACK
6.8935515,740,0x38,0x30,Write,ACK
6.893578,740,0x38,0x30,Write,ACK
6.893685,741,0x38,0x8D,Write,ACK
6.893711,741,0x38,0xA0,Write,ACK
6.8937375,741,0x38,0x00,Write,ACK
6.893844,742,0x38,0x6A,Write,ACK
6.89387,742,0x38,0x00,Write,ACK
6.893896,742,0x38,0x3D,Write,ACK
6.894003,743,0x38,0x6C,Write,ACK
6.894029,743,0x38,0x26,Write,ACK
6.8940555,743,0x38,0x00,Write,ACK
6.8941625,744,0x38,0x6A,Write,ACK
6.8941885,744,0x38,0x00,Write,ACK
6.8942145,744,0x38,0x12,Write,ACK
6.894321,745,0x38,0x6C,Write,ACK
6.894347,745,0x38,0x0A,Write,ACK
6.894373,745,0x38,0xA8,Write,ACK
6.894479,746,0x38,0x6A,Write,ACK
6.8945055,746,0x38,0x00,Write,ACK
6.8945315,746,0x38,0x14,Write,ACK
6.8946375,747,0x38,0x6C,Write,ACK
6.8946635,747,0x38,0x8A,Write,ACK
6.8946895,747,0x38,0xAA,Write,ACK
6.894795,748,0x38,0x6A,Write,ACK
6.8948215,748,0x38,0x00,Write,ACK
6.8948475,748,0x38,0x20,Write,ACK
6.8949525,749,0x38,0x6C,Write,ACK
6.8949785,749,0x38,0x61,Write,ACK
6.8950045,749,0x38,0x15,Write,ACK
6.8951105,750,0x38,0x6A,Write,ACK
6.8951365,750,0x38,0x00,Write,ACK
6.8951625,750,0x38,0x23,Write,ACK
6.8952685,751,0x38,0x6C,Write,ACK
6.8952945,751,0x38,0x08,Write,ACK
6.8953205,751,0x38,0x04,Write,ACK
6.895426,752,0x38,0x2A,Write,ACK
6.8954525,752,0x38,0x14,Write,ACK
6.8954785,752,0x38,0x14,Write,ACK
6.8955845,753,0x38,0x4F,Write,ACK
6.8956105,753,0x38,0x01,Write,ACK
6.8956365,753,0x38,0xFE,Write,ACK
6.8957415,754,0x38,0x52,Write,ACK
6.8957675,754,0x38,0x01,Write,ACK
6.8957935,754,0x38,0xFE,Write,ACK
6.8958995,755,0x38,0x02,Write,ACK
6.8959255,755,0x38,0x88,Write,ACK
6.8959515,755,0x38,0x88,Write,ACK
6.896058,756,0x38,0x45,Write,ACK
6.896084,756,0x38,0xC0,Write,ACK
6.89611,756,0x38,0x00,Write,ACK
6.8962155,757,0x38,0x46,Write,ACK
6.8962415,757,0x38,0x00,Write,ACK
6.8962675,757,0x38,0x36,Write,ACK
6.8963725,758,0x38,0x47,Write,ACK
6.8963985,758,0x38,0x00,Write,ACK
6.8964245,758,0x38,0x36,Write,ACK
6.8965305,759,0x38,0x01,Write,ACK
6.8965565,759,0x38,0x8A,Write,ACK
6.8965825,759,0x38,0x8A,Write,ACK
6.8966895,760,0x38,0x48,Write,ACK
6.8967155,760,0x38,0xE8,Write,ACK
6.896742,760,0x38,0x00,Write,ACK
6.896848,761,0x38,0x49,Write,ACK
6.896874,761,0x38,0x28,Write,ACK
6.8969,761,0x38,0x00,Write,ACK
6.897007,762,0x38,0x70,Write,ACK
6.897033,762,0x38,0x80,Write,ACK
6.8970595,762,0x38,0x00,Write,ACK
6.897166,763,0x38,0x0D,Write,ACK
6.897192,763,0x38,0x50,Write,ACK
6.897218,763,0x38,0x80,Write,ACK
6.8973235,764,0x38,0x0E,Write,ACK
6.89735,764,0x38,0x08,Write,ACK
6.897376,764,0x38,0x40,Write,ACK
6.897482,765,0x38,0x3C,Write,ACK
6.897508,765,0x38,0x00,Write,ACK
6.897534,765,0x38,0x6F,Write,ACK
6.89764,766,0x38,0x3E,Write,ACK
6.897666,766,0x38,0x00,Write,ACK
6.8976925,766,0x38,0x6F,Write,ACK
6.897799,767,0x38,0x27,Write,ACK
6.897825,767,0x38,0x10,Write,ACK
6.897851,767,0x38,0x00,Write,ACK
6.897957,768,0x38,0x91,Write,ACK
6.897983,768,0x38,0x0F,Write,ACK
6.898009,768,0x38,0x00,Write,ACK
6.898115,769,0x38,0x6A,Write,ACK
6.898141,769,0x38,0x00,Write,ACK
6.8981675,769,0x38,0x90,Write,ACK
6.8982725,770,0x38,0x6C,Write,ACK
6.8982985,770,0x38,0x20,Write,ACK
6.8983245,770,0x38,0x00,Write,ACK
6.8984305,771,0x38,0x6A,Write,ACK
6.8984565,771,0x38,0x00,Write,ACK
6.8984825,771,0x38,0x91,Write,ACK
6.898587,772,0x38,0x6C,Write,ACK
6.8986135,772,0x38,0x10,Write,ACK
6.8986395,772,0x38,0x00,Write,ACK
6.8987445,773,0x38,0x2A,Write,ACK
6.8987705,773,0x38,0x04,Write,ACK
6.8987965,773,0x38,0x04,Write,ACK
6.8989025,774,0x38,0x53,Write,ACK
6.8989285,774,0x38,0x30,Write,ACK
6.8989545,774,0x38,0x00,Write,ACK
6.8990605,775,0x38,0x70,Write,ACK
6.8990865,775,0x38,0xE0,Write,ACK
6.8991125,775,0x38,0x00,Write,ACK
6.899218,776,0x38,0x2E,Write,ACK
6.899244,776,0x38,0x00,Write,ACK
6.8992705,776,0x38,0x00,Write,ACK
6.8993765,777,0x38,0x6A,Write,ACK
6.8994025,777,0x38,0x00,Write,ACK
6.8994285,777,0x38,0x6E,Write,ACK
6.8995335,778,0x38,0x6C,Write,ACK
6.8995595,778,0x38,0x31,Write,ACK
6.8995855,778,0x38,0x59,Write,ACK
6.8996925,779,0x38,0xD6,Write,ACK
6.8997185,779,0x38,0x04,Write,ACK
6.8997445,779,0x38,0x20,Write,ACK
6.9012435,780,0x38,0x62,Write,ACK
6.9012695,780,0x38,0x10,Write,ACK
6.9012955,780,0x38,0x00,Write,ACK
6.9014085,781,0x38,0xC6,Write,ACK
6.9014925,782,0x39,0x20,Read,ACK
6.9015185,782,0x39,0x00,Read,NAK
6.9016215,783,0x38,0xC6,Write,ACK
6.9016475,783,0x38,0x28,Write,ACK
6.9016735,783,0x38,0x00,Write,ACK
6.901779,784,0x38,0xC6,Write,ACK
6.9018625,785,0x39,0x28,Read,ACK
6.9018885,785,0x39,0x00,Read,NAK
6.912006,786,0x38,0xC6,Write,ACK
6.912091,787,0x39,0x28,Read,ACK
6.912117,787,0x39,0x00,Read,NAK
6.912219,788,0x38,0xC6,Write,ACK
6.912245,788,0x38,0x0C,Write,ACK
6.912271,788,0x38,0x00,Write,ACK
6.912378,789,0x38,0xC6,Write,ACK
6.912461,790,0x39,0x0C,Read,ACK
6.912487,790,0x39,0x00,Read,NAK
6.912589,791,0x38,0xC6,Write,ACK
6.912672,792,0x39,0x0C,Read,ACK
6.9126985,792,0x39,0x00,Read,NAK
6.9127995,793,0x38,0xFC,Write,ACK
6.9128255,793,0x38,0x00,Write,ACK
6.9128515,793,0x38,0xE0,Write,ACK
6.912958,794,0x38,0xC4,Write,ACK
6.912984,794,0x38,0x3F,Write,ACK
6.91301,794,0x38,0xD2,Write,ACK
6.91312,795,0x38,0xC5,Write,ACK
6.913146,795,0x38,0x00,Write,ACK
6.913172,795,0x38,0x38,Write,ACK
6.913278,796,0x38,0xC6,Write,ACK
6.913304,796,0x38,0x0D,Write,ACK
6.9133305,796,0x38,0x3B,Write,ACK
6.923455,797,0x38,0xC6,Write,ACK
6.9235405,798,0x39,0x0C,Read,ACK
6.9235665,798,0x39,0x3B,Read,NAK
6.923669,799,0x38,0xC6,Write,ACK
6.923753,800,0x39,0x0C,Read,ACK
6.923779,800,0x39,0x3B,Read,NAK
6.923881,801,0x38,0xFC,Write,ACK
6.923907,801,0x38,0x00,Write,ACK
6.923933,801,0x38,0xE0,Write,ACK
6.924039,802,0x38,0xC4,Write,ACK
6.9240655,802,0x38,0x22,Write,ACK
6.9240915,802,0x38,0x9C,Write,ACK
6.924197,803,0x38,0xC5,Write,ACK
6.924223,803,0x38,0x0F,Write,ACK
6.924249,803,0x38,0xA0,Write,ACK
6.9243565,804,0x38,0xC6,Write,ACK
6.9243825,804,0x38,0x0D,Write,ACK
6.9244085,804,0x38,0x3B,Write,ACK
6.9345315,805,0x38,0xC6,Write,ACK
6.934617,806,0x39,0x0C,Read,ACK
6.934643,806,0x39,0x3B,Read,NAK
6.934745,807,0x38,0xC6,Write,ACK
6.9348285,808,0x39,0x0C,Read,ACK
6.9348545,808,0x39,0x3B,Read,NAK
6.9349565,809,0x38,0xFC,Write,ACK
6.9349825,809,0x38,0x00,Write,ACK
6.9350085,809,0x38,0xE0,Write,ACK
6.935114,810,0x38,0xC4,Write,ACK
6.93514,810,0x38,0x22,Write,ACK
6.9351665,810,0x38,0xD2,Write,ACK
6.935272,811,0x38,0xC5,Write,ACK
6.935298,811,0x38,0x84,Write,ACK
6.935324,811,0x38,0x00,Write,ACK
6.935429,812,0x38,0xC6,Write,ACK
6.935455,812,0x38,0x0D,Write,ACK
6.9354815,812,0x38,0x3B,Write,ACK
6.945604,813,0x38,0xC6,Write,ACK
6.945689,814,0x39,0x0C,Read,ACK
6.945715,814,0x39,0x3B,Read,NAK
6.945816,815,0x38,0xC6,Write,ACK
6.9458995,816,0x39,0x0C,Read,ACK
6.9459255,816,0x39,0x3B,Read,NAK
6.946027,817,0x38,0xFC,Write,ACK
6.946053,817,0x38,0x00,Write,ACK
6.946079,817,0x38,0xE0,Write,ACK
6.9461855,818,0x38,0xC4,Write,ACK
6.9462115,818,0x38,0x22,Write,ACK
6.9462375,818,0x38,0xEE,Write,ACK
6.946343,819,0x38,0xC5,Write,ACK
6.946369,819,0x38,0x00,Write,ACK
6.946395,819,0x38,0x01,Write,ACK
6.9465005,820,0x38,0xC6,Write,ACK
6.9465265,820,0x38,0x0D,Write,ACK
6.9465525,820,0x38,0x3B,Write,ACK
6.956676,821,0x38,0xC6,Write,ACK
6.9567615,822,0x39,0x0C,Read,ACK
6.9567875,822,0x39,0x3B,Read,NAK
6.95689,823,0x38,0xC6,Write,ACK
6.9569735,824,0x39,0x0C,Read,ACK
6.9569995,824,0x39,0x3B,Read,NAK
6.957101,825,0x38,0xFC,Write,ACK
6.957127,825,0x38,0x00,Write,ACK
6.957153,825,0x38,0xE0,Write,ACK
6.95726,826,0x38,0xC4,Write,ACK
6.957286,826,0x38,0x22,Write,ACK
6.957312,826,0x38,0xF2,Write,ACK
6.957417,827,0x38,0xC5,Write,ACK
6.957443,827,0x38,0x00,Write,ACK
6.957469,827,0x38,0x40,Write,ACK
6.957574,828,0x38,0xC6,Write,ACK
6.9576,828,0x38,0x0D,Write,ACK
6.957626,828,0x38,0x3B,Write,ACK
6.9677485,829,0x38,0xC6,Write,ACK
6.967833,830,0x39,0x0C,Read,ACK
6.967859,830,0x39,0x3B,Read,NAK
6.967961,831,0x38,0xC6,Write,ACK
6.9680445,832,0x39,0x0C,Read,ACK
6.9680705,832,0x39,0x3B,Read,NAK
6.968172,833,0x38,0xFC,Write,ACK
6.968198,833,0x38,0x00,Write,ACK
6.968224,833,0x38,0xE0,Write,ACK
6.96833,834,0x38,0xC4,Write,ACK
6.968356,834,0x38,0x22,Write,ACK
6.968382,834,0x38,0xF5,Write,ACK
6.968488,835,0x38,0xC5,Write,ACK
6.968514,835,0x38,0x80,Write,ACK
6.96854,835,0x38,0x00,Write,ACK
6.9686455,836,0x38,0xC6,Write,ACK
6.9686715,836,0x38,0x0D,Write,ACK
6.9686975,836,0x38,0x3B,Write,ACK
6.978819,837,0x38,0xC6,Write,ACK
6.9789035,838,0x39,0x0C,Read,ACK
6.9789295,838,0x39,0x3B,Read,NAK
6.979031,839,0x38,0xC6,Write,ACK
6.9791155,840,0x39,0x0C,Read,ACK
6.9791415,840,0x39,0x3B,Read,NAK
6.979243,841,0x38,0xFC,Write,ACK
6.979269,841,0x38,0x00,Write,ACK
6.979295,841,0x38,0xE0,Write,ACK
6.979401,842,0x38,0xC4,Write,ACK
6.979427,842,0x38,0x22,Write,ACK
6.979453,842,0x38,0xF6,Write,ACK
6.9795595,843,0x38,0xC5,Write,ACK
6.9795855,843,0x38,0x00,Write,ACK
6.9796115,843,0x38,0x00,Write,ACK
6.9797165,844,0x38,0xC6,Write,ACK
6.9797425,844,0x38,0x0D,Write,ACK
6.9797685,844,0x38,0x3B,Write,ACK
6.98989,845,0x38,0xC6,Write,ACK
6.989975,846,0x39,0x0C,Read,ACK
6.990001,846,0x39,0x3B,Read,NAK
6.990103,847,0x38,0xC6,Write,ACK
6.9901865,848,0x39,0x0C,Read,ACK
6.9902125,848,0x39,0x3B,Read,NAK
6.990314,849,0x38,0xFC,Write,ACK
6.99034,849,0x38,0x00,Write,ACK
6.990366,849,0x38,0xE0,Write,ACK
6.990472,850,0x38,0xC4,Write,ACK
6.9904985,850,0x38,0x22,Write,ACK
6.9905245,850,0x38,0xF9,Write,ACK
6.9906295,851,0x38,0xC5,Write,ACK
6.9906555,851,0x38,0x00,Write,ACK
6.9906815,851,0x38,0x7F,Write,ACK
6.990788,852,0x38,0xC6,Write,ACK
6.990814,852,0x38,0x0D,Write,ACK
6.99084,852,0x38,0x3B,Write,ACK
7.0009645,853,0x38,0xC6,Write,ACK
7.0010495,854,0x39,0x0C,Read,ACK
7.0010755,854,0x39,0x3B,Read,NAK
7.001178,855,0x38,0xC6,Write,ACK
7.0012615,856,0x39,0x0C,Read,ACK
7.0012875,856,0x39,0x3B,Read,NAK
7.001389,857,0x38,0xFC,Write,ACK
7.001415,857,0x38,0x00,Write,ACK
7.001441,857,0x38,0xE0,Write,ACK
7.001547,858,0x38,0xC4,Write,ACK
7.001573,858,0x38,0x23,Write,ACK
7.001599,858,0x38,0x10,Write,ACK
7.001704,859,0x38,0xC5,Write,ACK
7.00173,859,0x38,0x08,Write,ACK
7.001756,859,0x38,0x80,Write,ACK
7.001861,860,0x38,0xC6,Write,ACK
7.001887,860,0x38,0x0D,Write,ACK
7.0019135,860,0x38,0x3B,Write,ACK
7.012036,861,0x38,0xC6,Write,ACK
7.0121215,862,0x39,0x0C,Read,ACK
7.0121475,862,0x39,0x3B,Read,NAK
7.01225,863,0x38,0xC6,Write,ACK
7.0123335,864,0x39,0x0C,Read,ACK
7.0123595,864,0x39,0x3B,Read,NAK
7.0124615,865,0x38,0xFC,Write,ACK
7.0124875,865,0x38,0x00,Write,ACK
7.0125135,865,0x38,0x00,Write,ACK
7.01262,866,0x38,0xC4,Write,ACK
7.012646,866,0x38,0x38,Write,ACK
7.012672,866,0x38,0x00,Write,ACK
7.0127775,867,0x38,0xC6,Write,ACK
7.0128035,867,0x38,0x0E,Write,ACK
7.0128295,867,0x38,0x37,Write,ACK
7.012936,868,0x38,0xC6,Write,ACK
7.013019,869,0x39,0x8E,Read,ACK
7.013045,869,0x39,0x37,Read,NAK
7.013147,870,0x38,0xC6,Write,ACK
7.0132315,871,0x39,0x0C,Read,ACK
7.0132575,871,0x39,0x37,Read,NAK
7.0133595,872,0x38,0xC4,Write,ACK
7.0133855,872,0x38,0x00,Write,ACK
7.0134115,872,0x38,0x26,Write,ACK
7.013517,873,0x38,0xC6,Write,ACK
7.013543,873,0x38,0x0E,Write,ACK
7.013569,873,0x38,0x60,Write,ACK
7.0136755,874,0x38,0xC6,Write,ACK
7.0137585,875,0x39,0x8E,Read,ACK
7.013785,875,0x39,0x60,Read,NAK
7.0138865,876,0x38,0xC6,Write,ACK
7.0139695,877,0x39,0x0C,Read,ACK
7.013996,877,0x39,0x60,Read,NAK
7.0140965,878,0x38,0xC5,Write,ACK
7.01418,879,0x39,0x00,Read,ACK
7.014206,879,0x39,0x50,Read,NAK
7.014308,880,0x38,0xC4,Write,ACK
7.014334,880,0x38,0x00,Write,ACK
7.01436,880,0x38,0x25,Write,ACK
7.0144655,881,0x38,0xC6,Write,ACK
7.0144915,881,0x38,0x0E,Write,ACK
7.0145175,881,0x38,0x60,Write,ACK
7.0146245,882,0x38,0xC6,Write,ACK
7.014708,883,0x39,0x8E,Read,ACK
7.014734,883,0x39,0x60,Read,NAK
7.014836,884,0x38,0xC6,Write,ACK
7.014919,885,0x39,0x0C,Read,ACK
7.014945,885,0x39,0x60,Read,NAK
7.0150455,886,0x38,0xC5,Write,ACK
7.015129,887,0x39,0x50,Read,ACK
7.015155,887,0x39,0x1A,Read,NAK
7.015336,888,0x38,0x62,Write,ACK
7.015362,888,0x38,0x00,Write,ACK
7.015388,888,0x38,0x00,Write,ACK
7.01656,889,0x38,0x2A,Write,ACK
7.016586,889,0x38,0x14,Write,ACK
7.016612,889,0x38,0x04,Write,ACK
7.01714,890,0x38,0x2A,Write,ACK
7.017166,890,0x38,0x14,Write,ACK
7.017192,890,0x38,0x14,Write,ACK
7.018874,891,0x38,0x64,Write,ACK
7.0189,891,0x38,0x0C,Write,ACK
7.0189265,891,0x38,0x00,Write,ACK
7.019085,892,0x38,0x64,Write,ACK
7.0191115,892,0x38,0x00,Write,ACK
7.0191375,892,0x38,0x00,Write,ACK
7.019247,893,0x38,0x61,Write,ACK
7.019273,893,0x38,0x00,Write,ACK
7.019299,893,0x38,0x00,Write,ACK
7.019407,894,0x38,0x62,Write,ACK
7.0194335,894,0x38,0x00,Write,ACK
7.0194595,894,0x38,0x00,Write,ACK
7.019566,895,0x38,0x66,Write,ACK
7.019592,895,0x38,0x00,Write,ACK
7.019618,895,0x38,0x00,Write,ACK
7.019725,896,0x38,0x65,Write,ACK
7.019751,896,0x38,0x00,Write,ACK
7.019777,896,0x38,0x00,Write,ACK
7.0198845,897,0x38,0x63,Write,ACK
7.0199105,897,0x38,0x00,Write,ACK
7.0199365,897,0x38,0x00,Write,ACK
7.020043,898,0x38,0x64,Write,ACK
7.020069,898,0x38,0x00,Write,ACK
7.020095,898,0x38,0x00,Write,ACK
7.0688375,899,0x78,0x16,Write,ACK
7.0688635,899,0x78,0x20,Write,ACK
7.7362445,900,0xD0,0x04,Write,ACK
7.7362705,900,0xD0,0x1A,Write,ACK
7.750415,901,0xD0,0x07,Write,ACK
7.750501,902,0xD1,0x07,Read,ACK
7.750527,902,0xD1,0x30,Read,ACK
7.7505535,902,0xD1,0x4E,Read,ACK
7.7505795,902,0xD1,0x08,Read,ACK
7.7506055,902,0xD1,0x0A,Read,ACK
7.7506315,902,0xD1,0x0C,Read,ACK
7.7506575,902,0xD1,0x11,Read,NAK
7.7602505,903,0xAA,0x0A,Write,ACK
7.76065,904,0xAB,0x01,Read,ACK
7.7608035,904,0xAB,0x01,Read,NAK
7.7610605,905,0xAA,0x08,Write,ACK
7.761373,906,0xAB,0x21,Read,ACK
7.761526,906,0xAB,0x0F,Read,NAK
7.7617025,907,0xAA,0x2C,Write,ACK
7.762018,908,0xAB,0x43,Read,ACK
7.7621685,908,0xAB,0x00,Read,NAK
7.762345,909,0xAA,0x06,Write,ACK
7.7626625,910,0xAB,0xC1,Read,ACK
7.762816,910,0xAB,0x0B,Read,NAK
8.8239745,911,0x78,0x16,Write,ACK
8.8240005,911,0x78,0x18,Write,ACK
8.824552,912,0x78,0x17,Write,ACK
8.824578,912,0x78,0x18,Write,ACK
8.824724,913,0x78,0x16,Write,ACK
8.82475,913,0x78,0x10,Write,ACK
8.824883,914,0x78,0x17,Write,ACK
8.824909,914,0x78,0x10,Write,ACK
8.834421,915,0x78,0x16,Write,ACK
8.834447,915,0x78,0x14,Write,ACK
8.873952,916,0x78,0x17,Write,ACK
8.873978,916,0x78,0x18,Write,ACK
8.874137,917,0x78,0x16,Write,ACK
8.874163,917,0x78,0x18,Write,ACK
8.874302,918,0x78,0x17,Write,ACK
8.874328,918,0x78,0x20,Write,ACK
8.8745845,919,0x78,0x16,Write,ACK
8.8746105,919,0x78,0x1E,Write,ACK
8.8936995,920,0x78,0x16,Write,ACK
8.8937255,920,0x78,0x24,Write,ACK
8.9338715,921,0x78,0x16,Write,ACK
8.9338975,921,0x78,0x1E,Write,ACK
8.9342015,922,0x78,0x16,Write,ACK
8.9342275,922,0x78,0x18,Write,ACK
8.9344925,923,0x78,0x17,Write,ACK
8.9345185,923,0x78,0x18,Write,ACK
8.9348335,924,0x78,0x16,Write,ACK
8.9348595,924,0x78,0x14,Write,ACK
8.935259,925,0x78,0x17,Write,ACK
8.935285,925,0x78,0x10,Write,ACK
8.96395,926,0x78,0x16,Write,ACK
8.963976,926,0x78,0x10,Write,ACK
8.9938895,927,0x78,0x16,Write,ACK
8.9939155,927,0x78,0x14,Write,ACK
9.043856,928,0x78,0x16,Write,ACK
9.043882,928,0x78,0x10,Write,ACK
9.2540615,929,0x78,0x16,Write,ACK
9.2540875,929,0x78,0x14,Write,ACK
9.274108,930,0x78,0x17,Write,ACK
9.274134,930,0x78,0x18,Write,ACK
9.274396,931,0x78,0x16,Write,ACK
9.274422,931,0x78,0x18,Write,ACK
9.276921,932,0x78,0x17,Write,ACK
9.276947,932,0x78,0x20,Write,ACK
9.277215,933,0x78,0x16,Write,ACK
9.277241,933,0x78,0x20,Write,ACK
9.2773775,934,0x78,0x16,Write,ACK
9.2774035,934,0x78,0x24,Write,ACK
9.313873,935,0x78,0x16,Write,ACK
9.313899,935,0x78,0x1C,Write,ACK
9.314031,936,0x78,0x16,Write,ACK
9.314057,936,0x78,0x18,Write,ACK
9.3143155,937,0x78,0x17,Write,ACK
9.3143415,937,0x78,0x18,Write,ACK
9.314463,938,0x78,0x16,Write,ACK
9.314489,938,0x78,0x14,Write,ACK
9.314608,939,0x78,0x17,Write,ACK
9.314634,939,0x78,0x10,Write,ACK
9.3539825,940,0x78,0x16,Write,ACK
9.3540085,940,0x78,0x10,Write,ACK
9.4139905,941,0x78,0x16,Write,ACK
9.4140165,941,0x78,0x14,Write,ACK
9.4438985,942,0x78,0x17,Write,ACK
9.4439245,942,0x78,0x18,Write,ACK
9.444061,943,0x78,0x16,Write,ACK
9.4440875,943,0x78,0x18,Write,ACK
9.444206,944,0x78,0x17,Write,ACK
9.444232,944,0x78,0x20,Write,ACK
9.444451,945,0x78,0x16,Write,ACK
9.444477,945,0x78,0x20,Write,ACK
9.444596,946,0x78,0x16,Write,ACK
9.4446225,946,0x78,0x24,Write,ACK
9.4839215,947,0x78,0x16,Write,ACK
9.483948,947,0x78,0x1C,Write,ACK
9.484077,948,0x78,0x16,Write,ACK
9.484103,948,0x78,0x18,Write,ACK
9.484363,949,0x78,0x17,Write,ACK
9.484389,949,0x78,0x18,Write,ACK
9.484511,950,0x78,0x16,Write,ACK
9.484537,950,0x78,0x14,Write,ACK
9.484656,951,0x78,0x17,Write,ACK
9.4846825,951,0x78,0x10,Write,ACK
9.5240205,952,0x78,0x16,Write,ACK
9.5240465,952,0x78,0x10,Write,ACK
9.5440025,953,0x78,0x17,Write,ACK
9.5440285,953,0x78,0x18,Write,ACK
9.5444275,954,0x78,0x16,Write,ACK
9.5444535,954,0x78,0x18,Write,ACK
9.544615,955,0x78,0x17,Write,ACK
9.544641,955,0x78,0x20,Write,ACK
9.5471995,956,0x78,0x16,Write,ACK
9.5472255,956,0x78,0x1E,Write,ACK
9.584421,957,0x78,0x16,Write,ACK
9.584447,957,0x78,0x18,Write,ACK
9.603922,958,0x78,0x16,Write,ACK
9.603948,958,0x78,0x20,Write,ACK
